T5A50 164:618 SEGGER J-Link V6.48a Log File (0001ms, 1153ms total)
T5A50 164:618 DLL Compiled: Jul 30 2019 15:16:09 (0001ms, 1153ms total)
T5A50 164:618 Logging started @ 2021-05-09 20:38 (0001ms, 1153ms total)
T5A50 164:626 JLINK_ExecCommand("Device = ATSAMD21G18A", ...). Device "ATSAMD21G18" selected.  returns 0x00 (0001ms, 1154ms total)
T5A50 164:656 JLINK_TIF_Select(JLINKARM_TIF_SWD)  returns 0x00 (0001ms, 1155ms total)
T5A50 164:657 JLINK_SetSpeed(4000) (0000ms, 1155ms total)
T5A50 164:657 JLINK_ResetPullsRESET(OFF) (0000ms, 1155ms total)
T5A50 164:657 JLINK_Connect()InitTarget() >0x10B TIF>Found SW-DP with ID 0x0BC11477 >0x0D TIF> >0x28 TIF> >0x0D TIF> >0x28 TIF> >0x0D TIF> >0x28 TIF> >0x0D TIF> >0x28 TIF> >0x0D TIF> >0x21 TIF> >0x0D TIF> >0x28 TIF>Scanning AP map to find all available APs >0x0D TIF> >0x28 TIF> >0x0D TIF> >0x21 TIF> >0x0D TIF> >0x21 TIF> >0x0D TIF> >0x28 TIF> >0x0D TIF> >0x21 TIF> >0x0D TIF> >0x21 TIF>AP[1]: Stopped AP scan as end of AP map has been reachedAP[0]: AHB-AP (IDR: 0x04770031)
Iterating through AP map to find AHB-AP to use >0x42 TIF> >0x28 TIF> >0x0D TIF> >0x28 TIF> >0x0D TIF> >0x21 TIF> >0x0D TIF> >0x21 TIF> >0x42 TIF> >0x28 TIF> >0x0D TIF> >0x28 TIF> >0x0D TIF> >0x28 TIF> >0x0D TIF> >0x21 TIF> >0x0D TIF> >0x21 TIF>AP[0]: Core foundAP[0]: AHB-AP ROM base: 0x41003000 >0x0D TIF> >0x28 TIF> >0x0D TIF> >0x28 TIF> >0x0D TIF> >0x28 TIF> >0x0D TIF> >0x21 TIF> >0x0D TIF> >0x21 TIF>CPUID register: 0x410CC601. Implementer code: 0x41 (ARM)Found Cortex-M0 r0p1, Little endian.
 -- Max. mem block: 0x00001338 -- CPU_ReadMem(4 bytes @ 0xE000EDF0) -- CPU_WriteMem(4 bytes @ 0xE000EDF0) -- CPU_ReadMem(4 bytes @ 0xE0002000)FPUnit: 4 code (BP) slots and 0 literal slots -- CPU_ReadMem(4 bytes @ 0xE000EDFC) -- CPU_WriteMem(4 bytes @ 0xE000EDFC) -- CPU_ReadMem(4 bytes @ 0xE0001000) -- CPU_WriteMem(4 bytes @ 0xE0001000)CoreSight components:ROMTbl[0] @ 41003000 -- CPU_ReadMem(16 bytes @ 0x41003000) -- CPU_ReadMem(16 bytes @ 0xE00FFFF0) -- CPU_ReadMem(16 bytes @ 0xE00FFFE0)
ROMTbl[0][0]: E00FF000, CID: B105100D, PID: 000BB4C0 ROM TableROMTbl[1] @ E00FF000 -- CPU_ReadMem(16 bytes @ 0xE00FF000) -- CPU_ReadMem(16 bytes @ 0xE000EFF0) -- CPU_ReadMem(16 bytes @ 0xE000EFE0)ROMTbl[1][0]: E000E000, CID: B105E00D, PID: 000BB008 SCS -- CPU_ReadMem(16 bytes @ 0xE0001FF0) -- CPU_ReadMem(16 bytes @ 0xE0001FE0)ROMTbl[1][1]: E0001000, CID: B105E00D, PID: 000BB00A DWT -- CPU_ReadMem(16 bytes @ 0xE0002FF0) -- CPU_ReadMem(16 bytes @ 0xE0002FE0)
ROMTbl[1][2]: E0002000, CID: B105E00D, PID: 000BB00B FPB -- CPU_ReadMem(16 bytes @ 0x41006FF0) -- CPU_ReadMem(16 bytes @ 0x41006FE0)ROMTbl[0][1]: 41006000, CID: B105900D, PID: 001BB932 MTB-M0+  returns 0x00 (0128ms, 1283ms total)
T5A50 164:785 JLINK_ExecCommand("ExcludeFlashCacheRange 0x0 - 0x40000", ...).   returns 0x00 (0000ms, 1283ms total)
T5A50 164:785 JLINK_Halt()  returns 0x00 (0003ms, 1286ms total)
T5A50 164:789 JLINK_JTAG_GetDeviceID(DeviceIndex = 0)  returns 0x00 (0000ms, 1286ms total)
T5A50 164:789 JLINK_ReadMemU32(0x41002018, 0x0001 Items, ...) -- CPU_ReadMem(4 bytes @ 0x41002018) - Data: 05 03 01 10  returns 1 (0001ms, 1287ms total)
T34E0 164:799 JLINK_IsHalted()  returns TRUE (0000ms, 1287ms total)
T34E0 164:799 JLINK_GetMOEs(...) -- CPU_ReadMem(4 bytes @ 0xE000ED30)  returns 0x01 (0000ms, 1287ms total)
T34E0 164:799 JLINK_ReadReg(R15 (PC))  returns 0x00015FB0 (0000ms, 1287ms total)
T5A50 164:954 JLINK_BeginDownload(Flags = 0x00) (0000ms, 1287ms total)
T5A50 164:954 JLINK_WriteMem(0x00012000, 0x19184 Bytes, ...) - Data: 50 76 00 20 51 F9 01 00 35 F9 01 00 35 F9 01 00 ... -- Read from flash cache (102788 bytes @ 0x00012000)  returns 0x19184 (0001ms, 1288ms total)
T5A50 164:955 JLINK_WriteMem(0x0002B184, 0x02AC Bytes, ...) - Data: 00 00 00 00 0C 00 00 00 00 00 00 00 00 00 00 00 ... -- Read from flash cache (684 bytes @ 0x0002B184)  returns 0x2AC (0000ms, 1288ms total)
T5A50 164:999 JLINK_EndDownload() -- CPU_ReadMem(4 bytes @ 0x41006004) -- CPU_ReadMem(4 bytes @ 0xE000ED90) -- -------------------------------------- -- Start of determining dirty areas in flash cache -- End of determining dirty areas -- Start of preparing flash programming -- Calculating RAM usage -- RAM usage = 5876 Bytes -- Preserving CPU registers -- Preparing memory -- Preparing target -- Downloading RAMCode -- Checking target RAM -- Preparing RAMCode -- End of preparing flash programming
 -- CPU speed could not be measured. -- Start of comparing flash -- CRC check was estimated as fastest method -- Comparing range 0x12000 - 0x21FFF (256 Sectors, 64 KB), using multi-block CRC calculation -- CRC does not match for sectors 0-1, 4, 6, 8-9, 11-255 -- Comparing range 0x22000 - 0x2B4FF (149 Sectors, 37 KB), using multi-block CRC calculation -- CRC does not match for sectors 0-148 -- Comparing range 0x12200 - 0x123FF (2 Sectors, 512 Bytes), using alternative multi-block CRC calculation
 -- All CRCs match -- Comparing range 0x12500 - 0x125FF (1 Sector, 256 Bytes), using alternative multi-block CRC calculation -- All CRCs match -- Comparing range 0x12700 - 0x127FF (1 Sector, 256 Bytes), using alternative multi-block CRC calculation -- All CRCs match -- Comparing range 0x12A00 - 0x12AFF (1 Sector, 256 Bytes), using alternative multi-block CRC calculation -- All CRCs match -- End of comparing flash -- Start of erasing sectors
 -- Erasing range 0x00012000 - 0x000121FF (  2 Sectors, 512 Bytes) -- Erasing range 0x00012400 - 0x000124FF (  1 Sector, 256 Bytes) -- Erasing range 0x00012600 - 0x000126FF (  1 Sector, 256 Bytes) -- Erasing range 0x00012800 - 0x000129FF (  2 Sectors, 512 Bytes) -- Erasing range 0x00012B00 - 0x0001AAFF (128 Sectors, 32 KB) -- Erasing range 0x0001AB00 - 0x00022AFF (128 Sectors, 32 KB) -- Erasing range 0x00022B00 - 0x0002AAFF (128 Sectors, 32 KB) -- Erasing range 0x0002AB00 - 0x0002B4FF ( 10 Sectors, 2 KB)
 -- End of erasing sectors -- Start of flash programming -- Programming range 0x00012000 - 0x000121FF (  2 Sectors, 512 Bytes) -- Programming range 0x00012400 - 0x000124FF (  1 Sector, 256 Bytes) -- Programming range 0x00012600 - 0x000126FF (  1 Sector, 256 Bytes) -- Programming range 0x00012800 - 0x000129FF (  2 Sectors, 512 Bytes) -- Programming range 0x00012B00 - 0x0001AAFF (128 Sectors, 32 KB) -- Programming range 0x0001AB00 - 0x00022AFF (128 Sectors, 32 KB)
 -- Programming range 0x00022B00 - 0x0002AAFF (128 Sectors, 32 KB) -- Programming range 0x0002AB00 - 0x0002B4FF ( 10 Sectors, 2 KB) -- End of flash programming -- 0x12000 - 0x121FF (  2 Sectors, 512 Bytes) -- 0x12400 - 0x124FF (  1 Sector, 256 Bytes) -- 0x12600 - 0x126FF (  1 Sector, 256 Bytes) -- 0x12800 - 0x129FF (  2 Sectors, 512 Bytes) -- 0x12B00 - 0x2B4FF (394 Sectors, 98 KB) -- Start of verifying flash -- Use CRC or checksum calculation as verify method
 -- Use CRC or checksum calculation as verify method -- Use CRC or checksum calculation as verify method -- Use CRC or checksum calculation as verify method -- Use CRC or checksum calculation as verify method -- End of verifying flash -- Start of restoring -- Restoring RAMCode -- Restore target -- Restore memory -- Restoring CPU registers -- End of restoring -- Bank 0 @ 0x00000000: 5 ranges affected (102400 bytes)
 -- Total time needed: 1.091s (Prepare: 0.032s, Compare: 0.054s, Erase: 0.347s, Program: 0.644s, Verify: 0.008s, Restore: 0.004s)  returns 0x19000 (1096ms, 2384ms total)
T5A50 166:095 JLINK_SetResetType(JLINKARM_CM3_RESET_TYPE_NORMAL)  returns JLINKARM_CM3_RESET_TYPE_NORMAL (0000ms, 2384ms total)
T5A50 166:095 JLINK_Reset() -- CPU_ReadMem(4 bytes @ 0x200006BC) -- CPU_WriteMem(4 bytes @ 0x200006BC) -- CPU_ReadMem(4 bytes @ 0xE000EDFC) -- CPU_WriteMem(4 bytes @ 0xE000EDFC) -- CPU_WriteMem(4 bytes @ 0xE000ED0C) -- CPU_ReadMem(4 bytes @ 0xE000EDF0) -- CPU_ReadMem(4 bytes @ 0x41002100) -- CPU_WriteMem(4 bytes @ 0x41002100) -- CPU_ReadMem(4 bytes @ 0x41002100) -- CPU_WriteMem(4 bytes @ 0xE000EDFC) -- CPU_WriteMem(4 bytes @ 0xE0002000) -- CPU_ReadMem(4 bytes @ 0xE000EDFC)
 -- CPU_ReadMem(4 bytes @ 0xE0001000) -- CPU_WriteMem(4 bytes @ 0xE0001000) (0014ms, 2398ms total)
T34E0 166:211 JLINK_IsHalted()  returns TRUE (0000ms, 2398ms total)
T39B4 166:224 JLINK_Halt()  returns 0x00 (0000ms, 2398ms total)
T39B4 166:224 JLINK_ReadReg(R15 (PC))  returns 0x00006978 (0000ms, 2398ms total)
T39B4 166:224 JLINK_ReadReg(R13 (SP))  returns 0x20002CD8 (0000ms, 2398ms total)
T39B4 166:231 JLINK_ReadMemHW(0x00006978, 0x0004 Bytes, ...) -- CPU_ReadMem(4 bytes @ 0x00006978) - Data: 80 B5 82 B0  returns 0x00 (0000ms, 2398ms total)
T39B4 166:231 JLINK_ReadReg(R0)  returns 0x40001000 (0000ms, 2398ms total)
T39B4 166:231 JLINK_ReadReg(R1)  returns 0x00000000 (0000ms, 2398ms total)
T39B4 166:231 JLINK_ReadReg(R2)  returns 0x00000000 (0000ms, 2398ms total)
T39B4 166:231 JLINK_ReadReg(R3)  returns 0xF14A8BD3 (0001ms, 2399ms total)
T39B4 166:232 JLINK_ReadReg(R4)  returns 0x20000664 (0000ms, 2399ms total)
T39B4 166:232 JLINK_ReadReg(R5)  returns 0x20000684 (0000ms, 2399ms total)
T39B4 166:232 JLINK_ReadReg(R6)  returns 0x20000684 (0000ms, 2399ms total)
T39B4 166:232 JLINK_ReadReg(R7)  returns 0x00B71B00 (0000ms, 2399ms total)
T39B4 166:232 JLINK_ReadReg(R8)  returns 0x00016701 (0000ms, 2399ms total)
T39B4 166:232 JLINK_ReadReg(R9)  returns 0x20003B88 (0000ms, 2399ms total)
T39B4 166:232 JLINK_ReadReg(R10)  returns 0x000165CF (0000ms, 2399ms total)
T39B4 166:232 JLINK_ReadReg(R11)  returns 0xA5A5A5A5 (0000ms, 2399ms total)
T39B4 166:232 JLINK_ReadReg(R12)  returns 0x200005D8 (0000ms, 2399ms total)
T39B4 166:232 JLINK_ReadReg(R13 (SP))  returns 0x20002CD8 (0000ms, 2399ms total)
T39B4 166:232 JLINK_ReadReg(R14)  returns 0x2000032F (0000ms, 2399ms total)
T39B4 166:232 JLINK_ReadReg(R15 (PC))  returns 0x00006978 (0000ms, 2399ms total)
T39B4 166:232 JLINK_ReadReg(XPSR)  returns 0x21000000 (0000ms, 2399ms total)
T39B4 166:232 JLINK_ReadReg(MSP)  returns 0x20002CD8 (0000ms, 2399ms total)
T39B4 166:232 JLINK_ReadReg(PSP)  returns 0x200010F8 (0000ms, 2399ms total)
T39B4 166:232 JLINK_ReadReg(PRIMASK)  returns 0x00000000 (0000ms, 2399ms total)
T39B4 166:232 JLINK_ReadReg(BASEPRI)  returns 0x00000000 (0000ms, 2399ms total)
T39B4 166:232 JLINK_ReadReg(FAULTMASK)  returns 0x00000000 (0000ms, 2399ms total)
T39B4 166:232 JLINK_ReadReg(CONTROL)  returns 0x00000000 (0000ms, 2399ms total)
T39B4 166:232 JLINK_ReadMemHW(0x00006978, 0x0002 Bytes, ...) -- CPU_ReadMem(2 bytes @ 0x00006978) - Data: 80 B5  returns 0x00 (0001ms, 2400ms total)
T39B4 166:296 JLINK_ReadReg(R0)  returns 0x40001000 (0000ms, 2400ms total)
T39B4 166:296 JLINK_ReadReg(R1)  returns 0x00000000 (0000ms, 2400ms total)
T39B4 166:296 JLINK_ReadReg(R2)  returns 0x00000000 (0000ms, 2400ms total)
T39B4 166:296 JLINK_ReadReg(R3)  returns 0xF14A8BD3 (0000ms, 2400ms total)
T39B4 166:296 JLINK_ReadReg(R4)  returns 0x20000664 (0000ms, 2400ms total)
T39B4 166:296 JLINK_ReadReg(R5)  returns 0x20000684 (0000ms, 2400ms total)
T39B4 166:296 JLINK_ReadReg(R6)  returns 0x20000684 (0000ms, 2400ms total)
T39B4 166:296 JLINK_ReadReg(R7)  returns 0x00B71B00 (0000ms, 2400ms total)
T39B4 166:296 JLINK_ReadReg(R8)  returns 0x00016701 (0000ms, 2400ms total)
T39B4 166:296 JLINK_ReadReg(R9)  returns 0x20003B88 (0000ms, 2400ms total)
T39B4 166:296 JLINK_ReadReg(R10)  returns 0x000165CF (0000ms, 2400ms total)
T39B4 166:296 JLINK_ReadReg(R11)  returns 0xA5A5A5A5 (0000ms, 2400ms total)
T39B4 166:296 JLINK_ReadReg(R12)  returns 0x200005D8 (0000ms, 2400ms total)
T39B4 166:296 JLINK_ReadReg(R13 (SP))  returns 0x20002CD8 (0000ms, 2400ms total)
T39B4 166:296 JLINK_ReadReg(R14)  returns 0x2000032F (0000ms, 2400ms total)
T39B4 166:296 JLINK_ReadReg(R15 (PC))  returns 0x00006978 (0000ms, 2400ms total)
T39B4 166:296 JLINK_ReadReg(XPSR)  returns 0x21000000 (0000ms, 2400ms total)
T39B4 166:296 JLINK_ReadReg(MSP)  returns 0x20002CD8 (0001ms, 2401ms total)
T39B4 166:297 JLINK_ReadReg(PSP)  returns 0x200010F8 (0000ms, 2401ms total)
T39B4 166:297 JLINK_ReadReg(PRIMASK)  returns 0x00000000 (0000ms, 2401ms total)
T39B4 166:297 JLINK_ReadReg(BASEPRI)  returns 0x00000000 (0000ms, 2401ms total)
T39B4 166:297 JLINK_ReadReg(FAULTMASK)  returns 0x00000000 (0000ms, 2401ms total)
T39B4 166:297 JLINK_ReadReg(CONTROL)  returns 0x00000000 (0000ms, 2401ms total)
T39B4 166:297 JLINK_ReadMemHW(0x00006978, 0x0004 Bytes, ...) -- CPU_ReadMem(4 bytes @ 0x00006978) - Data: 80 B5 82 B0  returns 0x00 (0001ms, 2402ms total)
T39B4 166:298 JLINK_ReadMemHW(0x00006978, 0x0002 Bytes, ...) -- CPU_ReadMem(2 bytes @ 0x00006978) - Data: 80 B5  returns 0x00 (0000ms, 2402ms total)
T39B4 166:319 JLINK_SetResetType(JLINKARM_CM3_RESET_TYPE_NORMAL)  returns JLINKARM_CM3_RESET_TYPE_NORMAL (0000ms, 2402ms total)
T39B4 166:319 JLINK_Reset() -- CPU_ReadMem(4 bytes @ 0xE000EDFC) -- CPU_WriteMem(4 bytes @ 0xE000EDFC) -- CPU_WriteMem(4 bytes @ 0xE000ED0C) -- CPU_ReadMem(4 bytes @ 0xE000EDF0) -- CPU_ReadMem(4 bytes @ 0x41002100) -- CPU_WriteMem(4 bytes @ 0x41002100) -- CPU_ReadMem(4 bytes @ 0x41002100) -- CPU_WriteMem(4 bytes @ 0xE000EDFC) -- CPU_WriteMem(4 bytes @ 0xE0002000) -- CPU_ReadMem(4 bytes @ 0xE000EDFC) -- CPU_ReadMem(4 bytes @ 0xE0001000) -- CPU_WriteMem(4 bytes @ 0xE0001000) (0010ms, 2412ms total)
T34E0 166:329 JLINK_IsHalted()  returns TRUE (0000ms, 2412ms total)
T34E0 166:329 JLINK_GetMOEs(...) -- CPU_ReadMem(4 bytes @ 0xE000ED30)  returns 0x01 (0001ms, 2413ms total)
T34E0 166:330 JLINK_ReadReg(R15 (PC))  returns 0x00006978 (0000ms, 2413ms total)
T39B4 166:340 JLINK_ReadReg(R15 (PC))  returns 0x00006978 (0000ms, 2413ms total)
T39B4 166:340 JLINK_ReadReg(R13 (SP))  returns 0x20002CD8 (0000ms, 2413ms total)
T39B4 166:340 JLINK_ReadMemHW(0x00006978, 0x0004 Bytes, ...) -- CPU_ReadMem(4 bytes @ 0x00006978) - Data: 80 B5 82 B0  returns 0x00 (0000ms, 2413ms total)
T39B4 166:341 JLINK_ReadReg(R0)  returns 0x40001000 (0000ms, 2413ms total)
T39B4 166:341 JLINK_ReadReg(R1)  returns 0x00000000 (0000ms, 2413ms total)
T39B4 166:341 JLINK_ReadReg(R2)  returns 0x00000000 (0000ms, 2413ms total)
T39B4 166:341 JLINK_ReadReg(R3)  returns 0xF14A8BD3 (0000ms, 2413ms total)
T39B4 166:341 JLINK_ReadReg(R4)  returns 0x20000664 (0000ms, 2413ms total)
T39B4 166:341 JLINK_ReadReg(R5)  returns 0x20000684 (0000ms, 2413ms total)
T39B4 166:341 JLINK_ReadReg(R6)  returns 0x20000684 (0000ms, 2413ms total)
T39B4 166:341 JLINK_ReadReg(R7)  returns 0x00B71B00 (0000ms, 2413ms total)
T39B4 166:341 JLINK_ReadReg(R8)  returns 0x00016701 (0000ms, 2413ms total)
T39B4 166:341 JLINK_ReadReg(R9)  returns 0x20003B88 (0000ms, 2413ms total)
T39B4 166:341 JLINK_ReadReg(R10)  returns 0x000165CF (0000ms, 2413ms total)
T39B4 166:341 JLINK_ReadReg(R11)  returns 0xA5A5A5A5 (0000ms, 2413ms total)
T39B4 166:341 JLINK_ReadReg(R12)  returns 0x200005D8 (0000ms, 2413ms total)
T39B4 166:341 JLINK_ReadReg(R13 (SP))  returns 0x20002CD8 (0000ms, 2413ms total)
T39B4 166:341 JLINK_ReadReg(R14)  returns 0x2000032F (0000ms, 2413ms total)
T39B4 166:341 JLINK_ReadReg(R15 (PC))  returns 0x00006978 (0001ms, 2414ms total)
T39B4 166:342 JLINK_ReadReg(XPSR)  returns 0x21000000 (0000ms, 2414ms total)
T39B4 166:342 JLINK_ReadReg(MSP)  returns 0x20002CD8 (0000ms, 2414ms total)
T39B4 166:342 JLINK_ReadReg(PSP)  returns 0x200010F8 (0000ms, 2414ms total)
T39B4 166:342 JLINK_ReadReg(PRIMASK)  returns 0x00000000 (0000ms, 2414ms total)
T39B4 166:342 JLINK_ReadReg(BASEPRI)  returns 0x00000000 (0000ms, 2414ms total)
T39B4 166:342 JLINK_ReadReg(FAULTMASK)  returns 0x00000000 (0000ms, 2414ms total)
T39B4 166:342 JLINK_ReadReg(CONTROL)  returns 0x00000000 (0000ms, 2414ms total)
T39B4 166:342 JLINK_ReadMemHW(0x00006978, 0x0002 Bytes, ...) -- CPU_ReadMem(2 bytes @ 0x00006978) - Data: 80 B5  returns 0x00 (0000ms, 2414ms total)
T39B4 166:364 JLINK_ReadMem (0x2000032E, 0x0004 Bytes, ...) -- CPU_ReadMem(64 bytes @ 0x20000300) -- Updating C cache (64 bytes @ 0x20000300) -- Read from C cache (4 bytes @ 0x2000032E) - Data: 01 BD 70 B5  returns 0x00 (0001ms, 2415ms total)
T39B4 166:366 JLINK_ReadMem (0x200002E0, 0x0002 Bytes, ...) -- CPU_ReadMem(64 bytes @ 0x200002C0) -- Updating C cache (64 bytes @ 0x200002C0) -- Read from C cache (2 bytes @ 0x200002E0) - Data: FF F7  returns 0x00 (0001ms, 2416ms total)
T39B4 166:367 JLINK_ReadMem (0x200002E2, 0x0002 Bytes, ...) -- Read from C cache (2 bytes @ 0x200002E2) - Data: E6 FE  returns 0x00 (0000ms, 2416ms total)
T39B4 166:368 JLINK_ReadMem (0x2000032E, 0x0004 Bytes, ...) -- Read from C cache (4 bytes @ 0x2000032E) - Data: 01 BD 70 B5  returns 0x00 (0000ms, 2416ms total)
T39B4 166:368 JLINK_ReadMem (0x200002E0, 0x0002 Bytes, ...) -- Read from C cache (2 bytes @ 0x200002E0) - Data: FF F7  returns 0x00 (0000ms, 2416ms total)
T39B4 166:368 JLINK_ReadMem (0x200002E2, 0x0002 Bytes, ...) -- Read from C cache (2 bytes @ 0x200002E2) - Data: E6 FE  returns 0x00 (0000ms, 2416ms total)
T39B4 166:409 JLINK_ReadMemHW(0x00023E10, 0x0001 Bytes, ...) -- CPU_ReadMem(1 bytes @ 0x00023E10) - Data: 10  returns 0x00 (0001ms, 2417ms total)
T39B4 166:454 JLINK_ReadReg(R15 (PC))  returns 0x00006978 (0000ms, 2417ms total)
T39B4 166:454 JLINK_GetNumBPUnits(Type = 0xFFFFFF02)  returns 0x04 (0000ms, 2417ms total)
T39B4 166:454 JLINK_SetBPEx(Addr = 0x00023E10, Type = 0xFFFFFFF2)  returns 0x00000001 (0000ms, 2417ms total)
T39B4 166:454 JLINK_GetBPInfo(BPHandle = 1)  returns 0x00 (0000ms, 2417ms total)
T39B4 166:454 JLINK_Go() -- CPU_WriteMem(4 bytes @ 0xE0002000) -- CPU_ReadMem(4 bytes @ 0xE0001000) -- CPU_WriteMem(4 bytes @ 0xE000ED30) -- CPU_WriteMem(4 bytes @ 0xE0001000) -- CPU_WriteMem(4 bytes @ 0xE0002008) -- CPU_WriteMem(4 bytes @ 0xE000200C) -- CPU_WriteMem(4 bytes @ 0xE0002010) -- CPU_WriteMem(4 bytes @ 0xE0002014) -- CPU_WriteMem(4 bytes @ 0xE0001004) (0004ms, 2421ms total)
T34E0 166:458 JLINK_IsHalted() -- CPU_ReadMem(4 bytes @ 0x41002100)  returns FALSE (0001ms, 2422ms total)
T34E0 166:483 JLINK_IsHalted() -- CPU_ReadMem(4 bytes @ 0x41002100)  returns FALSE (0001ms, 2422ms total)
T34E0 166:566 JLINK_IsHalted() -- CPU_ReadMem(4 bytes @ 0x41002100)  returns FALSE (0000ms, 2421ms total)
T34E0 166:767 JLINK_IsHalted() -- CPU_ReadMem(4 bytes @ 0x41002100)  returns FALSE (0000ms, 2421ms total)
T34E0 166:968 JLINK_IsHalted() -- CPU_ReadMem(4 bytes @ 0x41002100)  returns FALSE (0000ms, 2421ms total)
T34E0 167:175 JLINK_IsHalted() -- CPU_ReadMem(4 bytes @ 0x41002100)  returns FALSE (0001ms, 2422ms total)
T34E0 167:378 JLINK_IsHalted() -- CPU_ReadMem(4 bytes @ 0x41002100)  returns FALSE (0001ms, 2422ms total)
T34E0 167:586 JLINK_IsHalted() -- CPU_ReadMem(4 bytes @ 0x41002100)  returns FALSE (0001ms, 2422ms total)
T34E0 167:788 JLINK_IsHalted() -- CPU_ReadMem(4 bytes @ 0x41002100)  returns FALSE (0001ms, 2422ms total)
T34E0 167:994 JLINK_IsHalted() -- CPU_ReadMem(4 bytes @ 0x41002100)  returns FALSE (0000ms, 2421ms total)
T34E0 168:196 JLINK_IsHalted() -- CPU_ReadMem(4 bytes @ 0x41002100)  returns FALSE (0001ms, 2422ms total)
T34E0 168:397 JLINK_IsHalted() -- CPU_ReadMem(4 bytes @ 0x41002100)  returns FALSE (0001ms, 2422ms total)
T34E0 168:598 JLINK_IsHalted() -- CPU_ReadMem(4 bytes @ 0x41002100)  returns FALSE (0002ms, 2423ms total)
T34E0 168:800 JLINK_IsHalted() -- CPU_ReadMem(4 bytes @ 0x41002100)  returns FALSE (0001ms, 2422ms total)
T34E0 169:003 JLINK_IsHalted()  returns TRUE (0004ms, 2425ms total)
T34E0 169:007 JLINK_GetMOEs(...) -- CPU_ReadMem(4 bytes @ 0xE000ED30)  returns 0x01 (0001ms, 2426ms total)
T34E0 169:008 JLINK_ReadReg(R15 (PC))  returns 0x00023E10 (0000ms, 2426ms total)
T39B4 169:016 JLINK_ReadReg(R15 (PC))  returns 0x00023E10 (0000ms, 2426ms total)
T39B4 169:016 JLINK_ReadReg(R13 (SP))  returns 0x20007638 (0000ms, 2426ms total)
T39B4 169:016 JLINK_ReadMemHW(0x00023E10, 0x0004 Bytes, ...) -- CPU_ReadMem(4 bytes @ 0x00023E10) - Data: 10 B5 05 4B  returns 0x00 (0001ms, 2427ms total)
T34E0 169:210 JLINK_IsHalted()  returns TRUE (0000ms, 2427ms total)
T5A50 169:291 JLINK_ReadMemHW(0x00000000, 0x01CE Bytes, ...) -- CPU_ReadMem(462 bytes @ 0x00000000) - Data: D8 2C 00 20 79 69 00 00 71 6A 00 00 71 6A 00 00 ...  returns 0x00 (0004ms, 2431ms total)
T5A50 169:346 JLINK_ReadMemHW(0x000001CE, 0x0084 Bytes, ...) -- CPU_ReadMem(132 bytes @ 0x000001CE) - Data: 00 00 80 B5 00 AF 02 4B 1B 68 18 00 BD 46 80 BD ...  returns 0x00 (0002ms, 2433ms total)
T5A50 169:353 JLINK_ReadMemHW(0x00000252, 0x00BD Bytes, ...) -- CPU_ReadMem(189 bytes @ 0x00000252) - Data: BD 46 04 B0 80 BD 00 44 00 41 80 B5 82 B0 00 AF ...  returns 0x00 (0002ms, 2435ms total)
T34E0 169:412 JLINK_IsHalted()  returns TRUE (0000ms, 2435ms total)
T34E0 169:613 JLINK_IsHalted()  returns TRUE (0000ms, 2435ms total)
T39B4 169:736 JLINK_ReadMem (0x200041E4, 0x0004 Bytes, ...) -- CPU_ReadMem(64 bytes @ 0x200041C0) -- Updating C cache (64 bytes @ 0x200041C0) -- Read from C cache (4 bytes @ 0x200041E4) - Data: 00 00 00 00  returns 0x00 (0001ms, 2436ms total)
T34E0 169:814 JLINK_IsHalted()  returns TRUE (0000ms, 2436ms total)
T34E0 170:014 JLINK_IsHalted()  returns TRUE (0000ms, 2436ms total)
T34E0 170:218 JLINK_IsHalted()  returns TRUE (0001ms, 2437ms total)
T34E0 170:419 JLINK_IsHalted()  returns TRUE (0000ms, 2436ms total)
T34E0 170:625 JLINK_IsHalted()  returns TRUE (0000ms, 2436ms total)
T34E0 170:828 JLINK_IsHalted()  returns TRUE (0000ms, 2436ms total)
T34E0 171:028 JLINK_IsHalted()  returns TRUE (0000ms, 2436ms total)
T34E0 171:228 JLINK_IsHalted()  returns TRUE (0000ms, 2436ms total)
T34E0 171:430 JLINK_IsHalted()  returns TRUE (0000ms, 2436ms total)
T34E0 171:630 JLINK_IsHalted()  returns TRUE (0000ms, 2436ms total)
T34E0 171:833 JLINK_IsHalted()  returns TRUE (0000ms, 2436ms total)
T34E0 172:034 JLINK_IsHalted()  returns TRUE (0000ms, 2436ms total)
T34E0 172:238 JLINK_IsHalted()  returns TRUE (0000ms, 2436ms total)
T34E0 172:439 JLINK_IsHalted()  returns TRUE (0000ms, 2436ms total)
T34E0 172:639 JLINK_IsHalted()  returns TRUE (0000ms, 2436ms total)
T39B4 172:696 JLINK_WriteU32(0xE000EDFC, 0x01000000) -- CPU_WriteMem(4 bytes @ 0xE000EDFC)  returns 0 (0001ms, 2437ms total)
T39B4 172:697 JLINK_ReadMem (0xE0001000, 0x0004 Bytes, ...) -- CPU_ReadMem(4 bytes @ 0xE0001000) - Data: 00 00 00 20  returns 0x00 (0000ms, 2437ms total)
T39B4 172:697 JLINK_WriteU32(0xE0001000, 0x20000001)  returns 0 (0000ms, 2437ms total)
T39B4 172:697 JLINK_WriteU32(0xE0001028, 0x00000100)  returns 0 (0000ms, 2437ms total)
T39B4 172:697 JLINK_ReadMem (0xE0001028, 0x0004 Bytes, ...) -- CPU_WriteMem(4 bytes @ 0xE0001028) -- CPU_ReadMem(4 bytes @ 0xE0001028) - Data: 00 00 00 00  returns 0x00 (0001ms, 2438ms total)
T39B4 172:698 JLINK_WriteU32(0xE0001024, 0x0000001F)  returns 0 (0000ms, 2438ms total)
T39B4 172:698 JLINK_ReadMem (0xE0001024, 0x0004 Bytes, ...) -- CPU_WriteMem(4 bytes @ 0xE0001024) -- CPU_ReadMem(4 bytes @ 0xE0001024) - Data: 1F 00 00 00  returns 0x00 (0002ms, 2440ms total)
T39B4 172:700 JLINK_WriteU32(0xE0001038, 0x00000100)  returns 0 (0000ms, 2440ms total)
T39B4 172:700 JLINK_ReadMem (0xE0001038, 0x0004 Bytes, ...) -- CPU_WriteMem(4 bytes @ 0xE0001038) -- CPU_ReadMem(4 bytes @ 0xE0001038) - Data: 00 00 00 00  returns 0x00 (0000ms, 2440ms total)
T39B4 172:700 JLINK_WriteU32(0xE0001034, 0x0000001F)  returns 0 (0000ms, 2440ms total)
T39B4 172:700 JLINK_ReadMem (0xE0001034, 0x0004 Bytes, ...) -- CPU_WriteMem(4 bytes @ 0xE0001034) -- CPU_ReadMem(4 bytes @ 0xE0001034) - Data: 1F 00 00 00  returns 0x00 (0002ms, 2442ms total)
T39B4 172:702 JLINK_WriteU32(0xE0001020, 0x00000000)  returns 0 (0000ms, 2442ms total)
T39B4 172:702 JLINK_WriteU32(0xE0001024, 0x00000000)  returns 0 (0000ms, 2442ms total)
T39B4 172:702 JLINK_WriteU32(0xE0001028, 0x00000000)  returns 0 (0000ms, 2442ms total)
T39B4 172:702 JLINK_WriteU32(0xE0001030, 0x00000000)  returns 0 (0000ms, 2442ms total)
T39B4 172:702 JLINK_WriteU32(0xE0001034, 0x00000000)  returns 0 (0000ms, 2442ms total)
T39B4 172:702 JLINK_WriteU32(0xE0001038, 0x00000000)  returns 0 (0000ms, 2442ms total)
T39B4 172:702 JLINK_GetBPInfo(BPHandle = 1)  returns 0x00 (0000ms, 2442ms total)
T39B4 172:702 JLINK_ClrBPEx(BPHandle = 0x00000001)  returns 0x00 (0000ms, 2442ms total)
T39B4 172:702 JLINK_ReadReg(R15 (PC))  returns 0x00023E10 (0000ms, 2442ms total)
T39B4 172:702 JLINK_Go() -- CPU_WriteMem(4 bytes @ 0xE0001000) -- CPU_ReadMem(4 bytes @ 0xE0001000) -- CPU_WriteMem(4 bytes @ 0xE000ED30) -- CPU_WriteMem(4 bytes @ 0xE0001000) -- CPU_WriteMem(4 bytes @ 0xE0001020) -- CPU_WriteMem(4 bytes @ 0xE0001030) -- CPU_WriteMem(4 bytes @ 0xE0001024) -- CPU_WriteMem(4 bytes @ 0xE0001034) -- CPU_WriteMem(4 bytes @ 0xE0001028) -- CPU_WriteMem(4 bytes @ 0xE0001038) -- CPU_WriteMem(4 bytes @ 0xE0002008) (0003ms, 2445ms total)
T34E0 172:705 JLINK_IsHalted() -- CPU_ReadMem(4 bytes @ 0x41002100)  returns FALSE (0001ms, 2446ms total)
T34E0 172:747 JLINK_IsHalted() -- CPU_ReadMem(4 bytes @ 0x41002100)  returns FALSE (0000ms, 2445ms total)
T34E0 172:910 JLINK_IsHalted() -- CPU_ReadMem(4 bytes @ 0x41002100)  returns FALSE (0000ms, 2445ms total)
T34E0 173:110 JLINK_IsHalted() -- CPU_ReadMem(4 bytes @ 0x41002100)  returns FALSE (0000ms, 2445ms total)
T34E0 173:311 JLINK_IsHalted() -- CPU_ReadMem(4 bytes @ 0x41002100)  returns FALSE (0001ms, 2446ms total)
